T0FC0 1539:677.493   SEGGER J-Link V6.70 Log File
T0FC0 1539:677.576   DLL Compiled: Mar 27 2020 14:35:04
T0FC0 1539:677.586   Logging started @ 2021-05-22 11:24
T0FC0 1539:677.600 JLINK_SetWarnOutHandler(...)
T0FC0 1539:677.609 - 0.013ms
T0FC0 1539:677.622 JLINK_OpenEx(...)
T0FC0 1539:679.866   Firmware: J-Link V9 compiled Dec 13 2019 11:14:50
T0FC0 1539:680.086   Decompressing FW timestamp took 181 us
T0FC0 1539:690.409   Hardware: V9.40
T0FC0 1539:690.433   S/N: 59425868
T0FC0 1539:690.445   OEM: SEGGER
T0FC0 1539:690.457   Feature(s): RDI, GDB, FlashDL, FlashBP, JFlash, RDDI
T0FC0 1539:694.279   TELNET listener socket opened on port 19021
T0FC0 1539:699.452   WEBSRV Starting webserver
T0FC0 1539:699.689   WEBSRV Webserver running on local port 19080
T0FC0 1539:699.725 - 22.107ms returns "O.K."
T0FC0 1539:699.755 JLINK_GetEmuCaps()
T0FC0 1539:699.778 - 0.027ms returns 0xB9FF7BBF
T0FC0 1539:699.794 JLINK_TIF_GetAvailable(...)
T0FC0 1539:700.128 - 0.364ms
T0FC0 1539:701.356 JLINK_SetErrorOutHandler(...)
T0FC0 1539:701.369 - 0.017ms
T0FC0 1539:701.400 JLINK_ExecCommand("ProjectFile = "D:\Charles\Geek\Project\Segway\software\segway\src\cube\MDK-ARM\JLinkSettings.ini"", ...). 
T0FC0 1539:702.343 - 0.952ms returns 0x00
T0FC0 1539:702.383 JLINK_ExecCommand("Device = STM32F401CEUx", ...). 
T0FC0 1539:702.973   Device "STM32F401CE" selected.
T0FC0 1539:703.622 - 1.255ms returns 0x00
T0FC0 1539:703.662 JLINK_ExecCommand("DisableConnectionTimeout", ...). 
T0FC0 1539:703.679 - 0.008ms returns 0x01
T0FC0 1539:703.695 JLINK_GetHardwareVersion()
T0FC0 1539:703.703 - 0.012ms returns 0x16F30
T0FC0 1539:703.715 JLINK_GetDLLVersion()  returns 67000
T0FC0 1539:703.731 JLINK_GetFirmwareString(...)
T0FC0 1539:703.739 - 0.012ms
T0FC0 1539:703.774 JLINK_GetDLLVersion()  returns 67000
T0FC0 1539:703.786 JLINK_GetCompileDateTime()
T0FC0 1539:703.794 - 0.011ms
T0FC0 1539:703.812 JLINK_GetFirmwareString(...)
T0FC0 1539:703.820 - 0.012ms
T0FC0 1539:703.837 JLINK_GetHardwareVersion()
T0FC0 1539:703.845 - 0.012ms returns 0x16F30
T0FC0 1539:703.888 JLINK_TIF_Select(JLINKARM_TIF_SWD)
T0FC0 1539:707.081 - 3.203ms returns 0x00
T0FC0 1539:707.114 JLINK_SetSpeed(50000)
T0FC0 1539:707.983 - 0.879ms
T0FC0 1539:708.009 JLINK_GetId()
T0FC0 1539:819.453   Found SW-DP with ID 0x2BA01477
T0FC0 1539:823.689   SWD speed too high. Reduced from 12000 kHz to 8100 kHz for stability
T0FC0 1539:868.051   Found SW-DP with ID 0x2BA01477
T0FC0 1539:873.513   Old FW that does not support reading DPIDR via DAP jobs
T0FC0 1539:874.656   Unknown DP version. Assuming DPv0
T0FC0 1539:874.694   Scanning AP map to find all available APs
T0FC0 1539:876.117   AP[1]: Stopped AP scan as end of AP map has been reached
T0FC0 1539:876.143   AP[0]: AHB-AP (IDR: 0x24770011)
T0FC0 1539:876.160   Iterating through AP map to find AHB-AP to use
T0FC0 1539:878.183   AP[0]: Core found
T0FC0 1539:878.205   AP[0]: AHB-AP ROM base: 0xE00FF000
T0FC0 1539:879.018   CPUID register: 0x410FC241. Implementer code: 0x41 (ARM)
T0FC0 1539:879.039   Found Cortex-M4 r0p1, Little endian.
T0FC0 1539:981.889    -- Max. mem block: 0x00010BB0
T0FC0 1539:981.916    -- CPU_ReadMem(4 bytes @ 0xE000EDF0)
T0FC0 1539:983.816    -- CPU_WriteMem(4 bytes @ 0xE000EDF0)
T0FC0 1539:984.704    -- CPU_ReadMem(4 bytes @ 0xE0002000)
T0FC0 1539:985.622   FPUnit: 6 code (BP) slots and 2 literal slots
T0FC0 1539:985.639    -- CPU_ReadMem(4 bytes @ 0xE000EDFC)
T0FC0 1539:986.483    -- CPU_WriteMem(4 bytes @ 0xE000EDFC)
T0FC0 1539:987.362    -- CPU_ReadMem(4 bytes @ 0xE0001000)
T0FC0 1539:988.307    -- CPU_WriteMem(4 bytes @ 0xE0001000)
T0FC0 1539:989.203    -- CPU_ReadMem(4 bytes @ 0xE000ED88)
T0FC0 1539:990.163    -- CPU_WriteMem(4 bytes @ 0xE000ED88)
T0FC0 1539:991.032    -- CPU_ReadMem(4 bytes @ 0xE000ED88)
T0FC0 1539:992.068    -- CPU_WriteMem(4 bytes @ 0xE000ED88)
T0FC0 1539:992.884   CoreSight components:
T0FC0 1539:992.906   ROMTbl[0] @ E00FF000
T0FC0 1539:992.920    -- CPU_ReadMem(64 bytes @ 0xE00FF000)
T0FC0 1539:994.076    -- CPU_ReadMem(32 bytes @ 0xE000EFE0)
T0FC0 1539:994.997   ROMTbl[0][0]: E000E000, CID: B105E00D, PID: 000BB00C SCS-M7
T0FC0 1539:995.014    -- CPU_ReadMem(32 bytes @ 0xE0001FE0)
T0FC0 1539:995.732   ROMTbl[0][1]: E0001000, CID: B105E00D, PID: 003BB002 DWT
T0FC0 1539:995.749    -- CPU_ReadMem(32 bytes @ 0xE0002FE0)
T0FC0 1539:996.747   ROMTbl[0][2]: E0002000, CID: B105E00D, PID: 002BB003 FPB
T0FC0 1539:996.763    -- CPU_ReadMem(32 bytes @ 0xE0000FE0)
T0FC0 1539:997.621   ROMTbl[0][3]: E0000000, CID: B105E00D, PID: 003BB001 ITM
T0FC0 1539:997.638    -- CPU_ReadMem(32 bytes @ 0xE0040FE0)
T0FC0 1539:998.534   ROMTbl[0][4]: E0040000, CID: B105900D, PID: 000BB9A1 TPIU
T0FC0 1539:998.552    -- CPU_ReadMem(32 bytes @ 0xE0041FE0)
T0FC0 1539:999.449   ROMTbl[0][5]: E0041000, CID: B105900D, PID: 000BB925 ETM
T0FC0 1540:000.195 - 292.194ms   returns 0x2BA01477
T0FC0 1540:000.220 JLINK_GetDLLVersion()  returns 67000
T0FC0 1540:000.255 JLINK_CORE_GetFound()
T0FC0 1540:000.263 - 0.012ms returns 0xE0000FF
T0FC0 1540:000.295 JLINK_GetDebugInfo(0x100 = JLINKARM_ROM_TABLE_ADDR_INDEX)
T0FC0 1540:000.304   Value=0xE00FF000
T0FC0 1540:000.338 - 0.047ms returns 0x00
T0FC0 1540:000.398 JLINK_GetDebugInfo(0x100 = JLINKARM_ROM_TABLE_ADDR_INDEX)
T0FC0 1540:000.407   Value=0xE00FF000
T0FC0 1540:000.419 - 0.041ms returns 0x00
T0FC0 1540:000.449 JLINK_GetDebugInfo(0x101 = JLINKARM_DEBUG_INFO_ETM_ADDR_INDEX)
T0FC0 1540:000.457   Value=0xE0041000
T0FC0 1540:000.487 - 0.042ms returns 0x00
T0FC0 1540:000.504   JLINK_ReadMemEx(0xE0041FD0, 0x0020 Bytes, ..., Flags = 0x02000004)
T0FC0 1540:000.536    -- CPU_ReadMem(32 bytes @ 0xE0041FD0)
T0FC0 1540:001.343   Data:  04 00 00 00 00 00 00 00 00 00 00 00 00 00 00 00 ...
T0FC0 1540:001.376 - 0.877ms returns 0x20
T0FC0 1540:001.393 JLINK_GetDebugInfo(0x102 = JLINKARM_DEBUG_INFO_MTB_ADDR_INDEX)
T0FC0 1540:001.402   Value=0x00000000
T0FC0 1540:001.428 - 0.053ms returns 0x00
T0FC0 1540:001.457 JLINK_GetDebugInfo(0x103 = JLINKARM_DEBUG_INFO_TPIU_ADDR_INDEX)
T0FC0 1540:001.465   Value=0xE0040000
T0FC0 1540:001.477 - 0.024ms returns 0x00
T0FC0 1540:001.490 JLINK_GetDebugInfo(0x104 = JLINKARM_DEBUG_INFO_ITM_ADDR_INDEX)
T0FC0 1540:001.499   Value=0xE0000000
T0FC0 1540:001.510 - 0.024ms returns 0x00
T0FC0 1540:001.540 JLINK_GetDebugInfo(0x105 = JLINKARM_DEBUG_INFO_DWT_ADDR_INDEX)
T0FC0 1540:001.567   Value=0xE0001000
T0FC0 1540:001.592 - 0.055ms returns 0x00
T0FC0 1540:001.605 JLINK_GetDebugInfo(0x106 = JLINKARM_DEBUG_INFO_FPB_ADDR_INDEX)
T0FC0 1540:001.627   Value=0xE0002000
T0FC0 1540:001.652 - 0.050ms returns 0x00
T0FC0 1540:001.678 JLINK_GetDebugInfo(0x107 = JLINKARM_DEBUG_INFO_NVIC_ADDR_INDEX)
T0FC0 1540:001.686   Value=0xE000E000
T0FC0 1540:001.725 - 0.051ms returns 0x00
T0FC0 1540:001.752 JLINK_GetDebugInfo(0x10C = JLINKARM_DEBUG_INFO_DBG_ADDR_INDEX)
T0FC0 1540:001.774   Value=0xE000EDF0
T0FC0 1540:001.786 - 0.038ms returns 0x00
T0FC0 1540:001.813 JLINK_GetDebugInfo(0x01 = Unknown)
T0FC0 1540:001.836   Value=0x00000001
T0FC0 1540:001.847 - 0.038ms returns 0x00
T0FC0 1540:001.876 JLINK_ReadMemU32(0xE000ED00, 0x0001 Items, ...)
T0FC0 1540:001.902    -- CPU_ReadMem(4 bytes @ 0xE000ED00)
T0FC0 1540:002.472   Data:  41 C2 0F 41
T0FC0 1540:002.488    - CPUID
T0FC0 1540:002.499 - 0.626ms returns 1
T0FC0 1540:002.515 JLINK_GetDebugInfo(0x10F = JLINKARM_DEBUG_INFO_HAS_CORTEX_M_SECURITY_EXT_INDEX)
T0FC0 1540:002.524   Value=0x00000000
T0FC0 1540:002.549 - 0.037ms returns 0x00
T0FC0 1540:002.581 JLINK_SetResetType(JLINKARM_CM3_RESET_TYPE_NORMAL)
T0FC0 1540:002.603 - 0.039ms returns JLINKARM_CM3_RESET_TYPE_NORMAL
T0FC0 1540:002.631 JLINK_Reset()
T0FC0 1540:002.644   CPU is running
T0FC0 1540:002.671    -- CPU_WriteMem(4 bytes @ 0xE000EDF0)
T0FC0 1540:003.410   CPU is running
T0FC0 1540:003.426    -- CPU_WriteMem(4 bytes @ 0xE000EDFC)
T0FC0 1540:004.300   Reset: Halt core after reset via DEMCR.VC_CORERESET.
T0FC0 1540:006.063   Reset: Reset device via AIRCR.SYSRESETREQ.
T0FC0 1540:006.079   CPU is running
T0FC0 1540:006.092    -- CPU_WriteMem(4 bytes @ 0xE000ED0C)
T0FC0 1540:060.695    -- CPU_ReadMem(4 bytes @ 0xE000EDF0)
T0FC0 1540:061.660    -- CPU_ReadMem(4 bytes @ 0xE000EDF0)
T0FC0 1540:062.583   CPU is running
T0FC0 1540:062.601    -- CPU_WriteMem(4 bytes @ 0xE000EDF0)
T0FC0 1540:063.460   CPU is running
T0FC0 1540:063.476    -- CPU_WriteMem(4 bytes @ 0xE000EDFC)
T0FC0 1540:070.213    -- CPU_ReadMem(4 bytes @ 0xE000EDF0)
T0FC0 1540:074.083    -- CPU_WriteMem(4 bytes @ 0xE0002000)
T0FC0 1540:074.661    -- CPU_ReadMem(4 bytes @ 0xE000EDFC)
T0FC0 1540:075.626    -- CPU_ReadMem(4 bytes @ 0xE0001000)
T0FC0 1540:076.440 - 73.818ms
T0FC0 1540:076.487 JLINK_ReadReg(R15 (PC))
T0FC0 1540:076.499 - 0.016ms returns 0x08000288
T0FC0 1540:076.513 JLINK_ReadReg(XPSR)
T0FC0 1540:076.522 - 0.012ms returns 0x01000000
T0FC0 1540:076.537 JLINK_Halt()
T0FC0 1540:076.546 - 0.013ms returns 0x00
T0FC0 1540:076.562 JLINK_ReadMemU32(0xE000EDF0, 0x0001 Items, ...)
T0FC0 1540:076.575    -- CPU_ReadMem(4 bytes @ 0xE000EDF0)
T0FC0 1540:077.395   Data:  03 00 03 00
T0FC0 1540:077.412    - DHCSR
T0FC0 1540:077.423 - 0.865ms returns 1
T0FC0 1540:077.443 JLINK_WriteU32(0xE000EDF0, 0xA05F0003)
T0FC0 1540:077.455    - DHCSR
T0FC0 1540:077.475    -- CPU_WriteMem(4 bytes @ 0xE000EDF0)
T0FC0 1540:078.266 - 0.831ms returns 0
T0FC0 1540:078.288 JLINK_WriteU32(0xE000EDFC, 0x01000000)
T0FC0 1540:078.298    - DEMCR
T0FC0 1540:078.315    -- CPU_WriteMem(4 bytes @ 0xE000EDFC)
T0FC0 1540:079.232 - 0.952ms returns 0
T0FC0 1540:079.326 JLINK_GetHWStatus(...)
T0FC0 1540:079.995 - 0.677ms returns 0x00
T0FC0 1540:080.061 JLINK_GetNumBPUnits(Type = 0xFFFFFF00)
T0FC0 1540:080.071 - 0.015ms returns 0x06
T0FC0 1540:080.084 JLINK_GetNumBPUnits(Type = 0xF0)
T0FC0 1540:080.092 - 0.017ms returns 0x2000
T0FC0 1540:080.109 JLINK_GetNumWPUnits()
T0FC0 1540:080.117 - 0.012ms returns 0x04
T0FC0 1540:080.148 JLINK_GetSpeed()
T0FC0 1540:080.157 - 0.013ms returns 0x1770
T0FC0 1540:080.179 JLINK_ReadMemU32(0xE000E004, 0x0001 Items, ...)
T0FC0 1540:080.193    -- CPU_ReadMem(4 bytes @ 0xE000E004)
T0FC0 1540:081.008   Data:  02 00 00 00
T0FC0 1540:081.050 - 0.878ms returns 1
T0FC0 1540:081.084 JLINK_ReadMemU32(0xE000E004, 0x0001 Items, ...)
T0FC0 1540:081.099    -- CPU_ReadMem(4 bytes @ 0xE000E004)
T0FC0 1540:081.906   Data:  02 00 00 00
T0FC0 1540:081.940 - 0.860ms returns 1
T0FC0 1540:081.969 JLINK_WriteMemEx(0xE0001000, 0x001C Bytes, ..., Flags = 0x02000004)
T0FC0 1540:081.978   Data:  01 00 00 00 00 00 00 00 00 00 00 00 00 00 00 00 ...
T0FC0 1540:082.512    -- CPU_WriteMem(28 bytes @ 0xE0001000)
T0FC0 1540:083.227 - 1.267ms returns 0x1C
T0FC0 1540:083.253 JLINK_ReadReg(R15 (PC))
T0FC0 1540:083.264 - 0.016ms returns 0x08000288
T0FC0 1540:083.276 JLINK_ReadReg(XPSR)
T0FC0 1540:083.284 - 0.012ms returns 0x01000000
T0FC0 1540:088.105   JLINK_ReadMemEx(0xE0001004, 0x0004 Bytes, ..., Flags = 0x02000000)
T0FC0 1540:088.128   Data:  00 00 00 00
T0FC0 1540:088.141    - DWT_CYCCNT
T0FC0 1540:088.152 - 0.052ms returns 0x04
T0FC0 1540:231.056 JLINK_SetResetType(JLINKARM_CM3_RESET_TYPE_NORMAL)
T0FC0 1540:231.077 - 0.024ms returns JLINKARM_CM3_RESET_TYPE_NORMAL
T0FC0 1540:231.089 JLINK_Reset()
T0FC0 1540:231.106    -- CPU_WriteMem(4 bytes @ 0xE000EDF0)
T0FC0 1540:231.594    -- CPU_WriteMem(4 bytes @ 0xE000EDFC)
T0FC0 1540:232.517   Reset: Halt core after reset via DEMCR.VC_CORERESET.
T0FC0 1540:234.294   Reset: Reset device via AIRCR.SYSRESETREQ.
T0FC0 1540:234.311    -- CPU_WriteMem(4 bytes @ 0xE000ED0C)
T0FC0 1540:288.971    -- CPU_ReadMem(4 bytes @ 0xE000EDF0)
T0FC0 1540:290.008    -- CPU_ReadMem(4 bytes @ 0xE000EDF0)
T0FC0 1540:290.881    -- CPU_WriteMem(4 bytes @ 0xE000EDF0)
T0FC0 1540:291.881    -- CPU_WriteMem(4 bytes @ 0xE000EDFC)
T0FC0 1540:298.554    -- CPU_ReadMem(4 bytes @ 0xE000EDF0)
T0FC0 1540:302.403    -- CPU_WriteMem(4 bytes @ 0xE0002000)
T0FC0 1540:303.059    -- CPU_ReadMem(4 bytes @ 0xE000EDFC)
T0FC0 1540:303.990    -- CPU_ReadMem(4 bytes @ 0xE0001000)
T0FC0 1540:304.815 - 73.752ms
T0FC0 1540:304.954 JLINK_ReadReg(R15 (PC))
T0FC0 1540:304.966 - 0.016ms returns 0x08000288
T0FC0 1540:304.978 JLINK_ReadReg(XPSR)
T0FC0 1540:304.994 - 0.019ms returns 0x01000000
T0FC0 1540:539.895   JLINK_ReadMemEx(0x08000288, 0x003C Bytes, ..., Flags = 0x02000000)
T0FC0 1540:539.928    -- CPU_ReadMem(128 bytes @ 0x08000280)
T0FC0 1540:541.066    -- Updating C cache (128 bytes @ 0x08000280)
T0FC0 1540:541.087    -- Read from C cache (60 bytes @ 0x08000288)
T0FC0 1540:541.101   Data:  09 48 80 47 09 48 00 47 FE E7 FE E7 FE E7 FE E7 ...
T0FC0 1540:541.113 - 1.224ms returns 0x3C
T0FC0 1540:541.130   JLINK_ReadMemEx(0x08000288, 0x0002 Bytes, ..., Flags = 0x02000000)
T0FC0 1540:541.145    -- Read from C cache (2 bytes @ 0x08000288)
T0FC0 1540:541.157   Data:  09 48
T0FC0 1540:541.169 - 0.043ms returns 0x02
T0FC0 1540:541.290   JLINK_ReadMemEx(0x0800028A, 0x0002 Bytes, ..., Flags = 0x02000000)
T0FC0 1540:541.303    -- Read from C cache (2 bytes @ 0x0800028A)
T0FC0 1540:541.316   Data:  80 47
T0FC0 1540:541.328 - 0.042ms returns 0x02
T0FC0 1540:541.354   JLINK_ReadMemEx(0x0800028A, 0x0002 Bytes, ..., Flags = 0x02000000)
T0FC0 1540:541.368    -- Read from C cache (2 bytes @ 0x0800028A)
T0FC0 1540:541.380   Data:  80 47
T0FC0 1540:541.392 - 0.042ms returns 0x02
T0FC0 1540:541.405   JLINK_ReadMemEx(0x0800028C, 0x003C Bytes, ..., Flags = 0x02000000)
T0FC0 1540:541.419    -- Read from C cache (60 bytes @ 0x0800028C)
T0FC0 1540:541.434   Data:  09 48 00 47 FE E7 FE E7 FE E7 FE E7 FE E7 FE E7 ...
T0FC0 1540:541.446 - 0.045ms returns 0x3C
T0FC0 1540:541.458   JLINK_ReadMemEx(0x0800028C, 0x0002 Bytes, ..., Flags = 0x02000000)
T0FC0 1540:541.471    -- Read from C cache (2 bytes @ 0x0800028C)
T0FC0 1540:541.483   Data:  09 48
T0FC0 1540:541.495 - 0.041ms returns 0x02
T0FC0 1542:150.720   JLINK_ReadMemEx(0x0800028C, 0x003C Bytes, ..., Flags = 0x02000000)
T0FC0 1542:150.754    -- Read from C cache (60 bytes @ 0x0800028C)
T0FC0 1542:150.767   Data:  09 48 00 47 FE E7 FE E7 FE E7 FE E7 FE E7 FE E7 ...
T0FC0 1542:150.779 - 0.078ms returns 0x3C
T0FC0 1542:150.806   JLINK_ReadMemEx(0x0800028C, 0x0002 Bytes, ..., Flags = 0x02000000)
T0FC0 1542:150.836    -- Read from C cache (2 bytes @ 0x0800028C)
T0FC0 1542:150.847   Data:  09 48
T0FC0 1542:150.859 - 0.057ms returns 0x02
T0FC0 1542:150.871   JLINK_ReadMemEx(0x0800028E, 0x0002 Bytes, ..., Flags = 0x02000000)
T0FC0 1542:150.883    -- Read from C cache (2 bytes @ 0x0800028E)
T0FC0 1542:150.894   Data:  00 47
T0FC0 1542:150.906 - 0.039ms returns 0x02
T0FC0 1542:545.855 JLINK_ReadReg(R0)
T0FC0 1542:546.361 - 0.516ms returns 0x00000000
T0FC0 1542:546.382 JLINK_ReadReg(R1)
T0FC0 1542:546.394 - 0.034ms returns 0x00000000
T0FC0 1542:546.424 JLINK_ReadReg(R2)
T0FC0 1542:546.432 - 0.012ms returns 0x00000000
T0FC0 1542:546.444 JLINK_ReadReg(R3)
T0FC0 1542:546.469 - 0.029ms returns 0x00000000
T0FC0 1542:546.480 JLINK_ReadReg(R4)
T0FC0 1542:546.488 - 0.012ms returns 0x00000000
T0FC0 1542:546.499 JLINK_ReadReg(R5)
T0FC0 1542:546.529 - 0.033ms returns 0x00000000
T0FC0 1542:546.556 JLINK_ReadReg(R6)
T0FC0 1542:546.564 - 0.012ms returns 0x00000000
T0FC0 1542:546.575 JLINK_ReadReg(R7)
T0FC0 1542:546.583 - 0.012ms returns 0x00000000
T0FC0 1542:546.594 JLINK_ReadReg(R8)
T0FC0 1542:546.603 - 0.012ms returns 0x00000000
T0FC0 1542:546.614 JLINK_ReadReg(R9)
T0FC0 1542:546.621 - 0.011ms returns 0x00000000
T0FC0 1542:546.632 JLINK_ReadReg(R10)
T0FC0 1542:546.640 - 0.011ms returns 0x00000000
T0FC0 1542:546.651 JLINK_ReadReg(R11)
T0FC0 1542:546.659 - 0.011ms returns 0x00000000
T0FC0 1542:546.670 JLINK_ReadReg(R12)
T0FC0 1542:546.678 - 0.012ms returns 0x00000000
T0FC0 1542:546.689 JLINK_ReadReg(R13 (SP))
T0FC0 1542:546.697 - 0.012ms returns 0x2000EDF8
T0FC0 1542:546.708 JLINK_ReadReg(R14)
T0FC0 1542:546.716 - 0.012ms returns 0xFFFFFFFF
T0FC0 1542:546.727 JLINK_ReadReg(R15 (PC))
T0FC0 1542:546.736 - 0.012ms returns 0x08000288
T0FC0 1542:546.747 JLINK_ReadReg(XPSR)
T0FC0 1542:546.755 - 0.012ms returns 0x01000000
T0FC0 1542:546.766 JLINK_ReadReg(MSP)
T0FC0 1542:546.774 - 0.012ms returns 0x2000EDF8
T0FC0 1542:546.785 JLINK_ReadReg(PSP)
T0FC0 1542:546.793 - 0.016ms returns 0x00000000
T0FC0 1542:546.810 JLINK_ReadReg(CFBP)
T0FC0 1542:546.818 - 0.012ms returns 0x00000000
T0FC0 1542:546.829 JLINK_ReadReg(FPSCR)
T0FC0 1542:550.320 - 3.502ms returns 0x00000000
T0FC0 1542:550.343 JLINK_ReadReg(FPS0)
T0FC0 1542:550.353 - 0.014ms returns 0x00000000
T0FC0 1542:550.364 JLINK_ReadReg(FPS1)
T0FC0 1542:550.373 - 0.012ms returns 0x00000000
T0FC0 1542:550.384 JLINK_ReadReg(FPS2)
T0FC0 1542:550.392 - 0.012ms returns 0x00000000
T0FC0 1542:550.403 JLINK_ReadReg(FPS3)
T0FC0 1542:550.411 - 0.012ms returns 0x00000000
T0FC0 1542:550.422 JLINK_ReadReg(FPS4)
T0FC0 1542:550.430 - 0.012ms returns 0x00000000
T0FC0 1542:550.442 JLINK_ReadReg(FPS5)
T0FC0 1542:550.450 - 0.012ms returns 0x00000000
T0FC0 1542:550.461 JLINK_ReadReg(FPS6)
T0FC0 1542:550.469 - 0.012ms returns 0x00000000
T0FC0 1542:550.480 JLINK_ReadReg(FPS7)
T0FC0 1542:550.488 - 0.011ms returns 0x00000000
T0FC0 1542:550.499 JLINK_ReadReg(FPS8)
T0FC0 1542:550.507 - 0.012ms returns 0x00000000
T0FC0 1542:550.518 JLINK_ReadReg(FPS9)
T0FC0 1542:550.526 - 0.012ms returns 0x00000000
T0FC0 1542:550.537 JLINK_ReadReg(FPS10)
T0FC0 1542:550.545 - 0.011ms returns 0x00000000
T0FC0 1542:550.556 JLINK_ReadReg(FPS11)
T0FC0 1542:550.564 - 0.012ms returns 0x00000000
T0FC0 1542:550.575 JLINK_ReadReg(FPS12)
T0FC0 1542:550.583 - 0.011ms returns 0x00000000
T0FC0 1542:550.594 JLINK_ReadReg(FPS13)
T0FC0 1542:550.602 - 0.011ms returns 0x00000000
T0FC0 1542:550.613 JLINK_ReadReg(FPS14)
T0FC0 1542:550.620 - 0.011ms returns 0x00000000
T0FC0 1542:550.631 JLINK_ReadReg(FPS15)
T0FC0 1542:550.639 - 0.011ms returns 0x00000000
T0FC0 1542:550.650 JLINK_ReadReg(FPS16)
T0FC0 1542:550.658 - 0.012ms returns 0x00000000
T0FC0 1542:550.669 JLINK_ReadReg(FPS17)
T0FC0 1542:550.677 - 0.011ms returns 0x00000000
T0FC0 1542:550.688 JLINK_ReadReg(FPS18)
T0FC0 1542:550.696 - 0.012ms returns 0x00000000
T0FC0 1542:550.707 JLINK_ReadReg(FPS19)
T0FC0 1542:550.715 - 0.011ms returns 0x00000000
T0FC0 1542:550.726 JLINK_ReadReg(FPS20)
T0FC0 1542:550.734 - 0.012ms returns 0x00000000
T0FC0 1542:550.745 JLINK_ReadReg(FPS21)
T0FC0 1542:550.753 - 0.012ms returns 0x00000000
T0FC0 1542:550.764 JLINK_ReadReg(FPS22)
T0FC0 1542:550.772 - 0.012ms returns 0x00000000
T0FC0 1542:550.783 JLINK_ReadReg(FPS23)
T0FC0 1542:550.791 - 0.012ms returns 0x00000000
T0FC0 1542:550.802 JLINK_ReadReg(FPS24)
T0FC0 1542:550.810 - 0.011ms returns 0x00000000
T0FC0 1542:550.821 JLINK_ReadReg(FPS25)
T0FC0 1542:550.829 - 0.011ms returns 0x00000000
T0FC0 1542:550.840 JLINK_ReadReg(FPS26)
T0FC0 1542:550.847 - 0.011ms returns 0x00000000
T0FC0 1542:550.858 JLINK_ReadReg(FPS27)
T0FC0 1542:550.866 - 0.011ms returns 0x00000000
T0FC0 1542:550.877 JLINK_ReadReg(FPS28)
T0FC0 1542:550.885 - 0.012ms returns 0x00000000
T0FC0 1542:550.896 JLINK_ReadReg(FPS29)
T0FC0 1542:550.904 - 0.011ms returns 0x00000000
T0FC0 1542:550.915 JLINK_ReadReg(FPS30)
T0FC0 1542:550.923 - 0.012ms returns 0x00000000
T0FC0 1542:550.934 JLINK_ReadReg(FPS31)
T0FC0 1542:550.942 - 0.011ms returns 0x00000000
T440C 1542:597.395   JLINK_ReadMemEx(0x08000288, 0x0002 Bytes, ..., Flags = 0x02000000)
T440C 1542:597.441    -- Read from C cache (2 bytes @ 0x08000288)
T440C 1542:597.454   Data:  09 48
T440C 1542:597.466 - 0.076ms returns 0x02
T440C 1542:597.506   JLINK_SetBPEx(Addr = 0x080083A4, Type = 0xFFFFFFF2)
T440C 1542:597.536 - 0.034ms returns 0x00000001
T440C 1542:597.569 JLINK_Go()
T440C 1542:597.626    -- CPU_WriteMem(4 bytes @ 0xE0002000)
T440C 1542:598.425    -- CPU_ReadMem(4 bytes @ 0xE0001000)
T440C 1542:599.288    -- CPU_WriteMem(4 bytes @ 0xE0002008)
T440C 1542:599.306    -- CPU_WriteMem(4 bytes @ 0xE000200C)
T440C 1542:599.317    -- CPU_WriteMem(4 bytes @ 0xE0002010)
T440C 1542:599.329    -- CPU_WriteMem(4 bytes @ 0xE0002014)
T440C 1542:599.340    -- CPU_WriteMem(4 bytes @ 0xE0002018)
T440C 1542:599.352    -- CPU_WriteMem(4 bytes @ 0xE000201C)
T440C 1542:600.929    -- CPU_WriteMem(4 bytes @ 0xE0001004)
T440C 1542:602.481 - 4.938ms
T440C 1542:702.885 JLINK_IsHalted()
T440C 1542:705.749 - 2.875ms returns TRUE
T440C 1542:705.777 JLINK_Halt()
T440C 1542:705.786 - 0.012ms returns 0x00
T440C 1542:705.797 JLINK_IsHalted()
T440C 1542:705.806 - 0.012ms returns TRUE
T440C 1542:705.822 JLINK_IsHalted()
T440C 1542:705.830 - 0.012ms returns TRUE
T440C 1542:705.860 JLINK_IsHalted()
T440C 1542:705.882 - 0.026ms returns TRUE
T440C 1542:705.898 JLINK_ReadReg(R15 (PC))
T440C 1542:705.925 - 0.031ms returns 0x080083A4
T440C 1542:705.951 JLINK_ReadReg(XPSR)
T440C 1542:705.959 - 0.012ms returns 0x61000000
T440C 1542:705.979 JLINK_ClrBPEx(BPHandle = 0x00000001)
T440C 1542:705.988 - 0.013ms returns 0x00
T440C 1542:706.006 JLINK_ReadMemU32(0xE000ED30, 0x0001 Items, ...)
T440C 1542:706.019    -- CPU_ReadMem(4 bytes @ 0xE000ED30)
T440C 1542:706.566   Data:  02 00 00 00
T440C 1542:706.583 - 0.581ms returns 1
T440C 1542:706.598 JLINK_ReadMemU32(0xE0001028, 0x0001 Items, ...)
T440C 1542:706.611    -- CPU_ReadMem(4 bytes @ 0xE0001028)
T440C 1542:707.470   Data:  00 00 00 00
T440C 1542:707.488    - DWT_FUNC[0]
T440C 1542:707.513 - 0.933ms returns 1
T440C 1542:707.542 JLINK_ReadMemU32(0xE0001038, 0x0001 Items, ...)
T440C 1542:707.555    -- CPU_ReadMem(4 bytes @ 0xE0001038)
T440C 1542:708.408   Data:  00 02 00 00
T440C 1542:708.425    - DWT_FUNC[1]
T440C 1542:708.437 - 0.898ms returns 1
T440C 1542:708.455 JLINK_ReadMemU32(0xE0001048, 0x0001 Items, ...)
T440C 1542:708.482    -- CPU_ReadMem(4 bytes @ 0xE0001048)
T440C 1542:709.282   Data:  00 00 00 00
T440C 1542:709.299    - DWT_FUNC[2]
T440C 1542:709.311 - 0.860ms returns 1
T440C 1542:709.328 JLINK_ReadMemU32(0xE0001058, 0x0001 Items, ...)
T440C 1542:709.355    -- CPU_ReadMem(4 bytes @ 0xE0001058)
T440C 1542:710.197   Data:  00 00 00 00
T440C 1542:710.215    - DWT_FUNC[3]
T440C 1542:710.226 - 0.902ms returns 1
T440C 1542:711.262 JLINK_ReadReg(R0)
T440C 1542:711.278 - 0.021ms returns 0x2000E5F8
T440C 1542:711.291 JLINK_ReadReg(R1)
T440C 1542:711.299 - 0.012ms returns 0x2000E5F8
T440C 1542:711.311 JLINK_ReadReg(R2)
T440C 1542:711.319 - 0.012ms returns 0x2000E5F8
T440C 1542:711.330 JLINK_ReadReg(R3)
T440C 1542:711.338 - 0.012ms returns 0x2000E5F8
T440C 1542:711.349 JLINK_ReadReg(R4)
T440C 1542:711.357 - 0.012ms returns 0x00000000
T440C 1542:711.368 JLINK_ReadReg(R5)
T440C 1542:711.376 - 0.012ms returns 0x20000180
T440C 1542:711.387 JLINK_ReadReg(R6)
T440C 1542:711.395 - 0.012ms returns 0x00000000
T440C 1542:711.406 JLINK_ReadReg(R7)
T440C 1542:711.414 - 0.012ms returns 0x00000000
T440C 1542:711.425 JLINK_ReadReg(R8)
T440C 1542:711.433 - 0.012ms returns 0x00000000
T440C 1542:711.444 JLINK_ReadReg(R9)
T440C 1542:711.452 - 0.012ms returns 0x00000000
T440C 1542:711.463 JLINK_ReadReg(R10)
T440C 1542:711.471 - 0.012ms returns 0x0800BC14
T440C 1542:711.482 JLINK_ReadReg(R11)
T440C 1542:711.490 - 0.011ms returns 0x00000000
T440C 1542:711.501 JLINK_ReadReg(R12)
T440C 1542:711.509 - 0.011ms returns 0x200001C0
T440C 1542:711.520 JLINK_ReadReg(R13 (SP))
T440C 1542:711.528 - 0.012ms returns 0x2000EDF8
T440C 1542:711.540 JLINK_ReadReg(R14)
T440C 1542:711.547 - 0.011ms returns 0x08000277
T440C 1542:711.558 JLINK_ReadReg(R15 (PC))
T440C 1542:711.567 - 0.012ms returns 0x080083A4
T440C 1542:711.578 JLINK_ReadReg(XPSR)
T440C 1542:711.586 - 0.012ms returns 0x61000000
T440C 1542:711.597 JLINK_ReadReg(MSP)
T440C 1542:711.605 - 0.012ms returns 0x2000EDF8
T440C 1542:711.616 JLINK_ReadReg(PSP)
T440C 1542:711.624 - 0.012ms returns 0x00000000
T440C 1542:711.635 JLINK_ReadReg(CFBP)
T440C 1542:711.643 - 0.012ms returns 0x04000000
T440C 1542:711.654 JLINK_ReadReg(FPSCR)
T440C 1542:715.043 - 3.404ms returns 0x03000000
T440C 1542:715.070 JLINK_ReadReg(FPS0)
T440C 1542:715.081 - 0.015ms returns 0x00000000
T440C 1542:715.093 JLINK_ReadReg(FPS1)
T440C 1542:715.101 - 0.012ms returns 0x00000000
T440C 1542:715.113 JLINK_ReadReg(FPS2)
T440C 1542:715.135 - 0.026ms returns 0x00000000
T440C 1542:715.146 JLINK_ReadReg(FPS3)
T440C 1542:715.154 - 0.012ms returns 0x00000000
T440C 1542:715.165 JLINK_ReadReg(FPS4)
T440C 1542:715.173 - 0.012ms returns 0x00000000
T440C 1542:715.188 JLINK_ReadReg(FPS5)
T440C 1542:715.199 - 0.014ms returns 0x00000000
T440C 1542:715.210 JLINK_ReadReg(FPS6)
T440C 1542:715.218 - 0.012ms returns 0x00000000
T440C 1542:715.229 JLINK_ReadReg(FPS7)
T440C 1542:715.237 - 0.012ms returns 0x00000000
T440C 1542:715.248 JLINK_ReadReg(FPS8)
T440C 1542:715.256 - 0.012ms returns 0x00000000
T440C 1542:715.267 JLINK_ReadReg(FPS9)
T440C 1542:715.276 - 0.013ms returns 0x00000000
T440C 1542:715.289 JLINK_ReadReg(FPS10)
T440C 1542:715.297 - 0.012ms returns 0x00000000
T440C 1542:715.308 JLINK_ReadReg(FPS11)
T440C 1542:715.316 - 0.012ms returns 0x00000000
T440C 1542:715.327 JLINK_ReadReg(FPS12)
T440C 1542:715.335 - 0.012ms returns 0x00000000
T440C 1542:715.346 JLINK_ReadReg(FPS13)
T440C 1542:715.354 - 0.012ms returns 0x00000000
T440C 1542:715.365 JLINK_ReadReg(FPS14)
T440C 1542:715.373 - 0.012ms returns 0x00000000
T440C 1542:715.384 JLINK_ReadReg(FPS15)
T440C 1542:715.392 - 0.012ms returns 0x00000000
T440C 1542:715.403 JLINK_ReadReg(FPS16)
T440C 1542:715.411 - 0.011ms returns 0x00000000
T440C 1542:715.422 JLINK_ReadReg(FPS17)
T440C 1542:715.430 - 0.012ms returns 0x00000000
T440C 1542:715.441 JLINK_ReadReg(FPS18)
T440C 1542:715.449 - 0.012ms returns 0x00000000
T440C 1542:715.460 JLINK_ReadReg(FPS19)
T440C 1542:715.469 - 0.012ms returns 0x00000000
T440C 1542:715.480 JLINK_ReadReg(FPS20)
T440C 1542:715.488 - 0.011ms returns 0x00000000
T440C 1542:715.499 JLINK_ReadReg(FPS21)
T440C 1542:715.507 - 0.012ms returns 0x00000000
T440C 1542:715.518 JLINK_ReadReg(FPS22)
T440C 1542:715.526 - 0.012ms returns 0x00000000
T440C 1542:715.537 JLINK_ReadReg(FPS23)
T440C 1542:715.545 - 0.012ms returns 0x00000000
T440C 1542:715.556 JLINK_ReadReg(FPS24)
T440C 1542:715.564 - 0.012ms returns 0x00000000
T440C 1542:715.575 JLINK_ReadReg(FPS25)
T440C 1542:715.583 - 0.011ms returns 0x00000000
T440C 1542:715.594 JLINK_ReadReg(FPS26)
T440C 1542:715.601 - 0.011ms returns 0x00000000
T440C 1542:715.612 JLINK_ReadReg(FPS27)
T440C 1542:715.620 - 0.011ms returns 0x00000000
T440C 1542:715.631 JLINK_ReadReg(FPS28)
T440C 1542:715.639 - 0.011ms returns 0x00000000
T440C 1542:715.650 JLINK_ReadReg(FPS29)
T440C 1542:715.658 - 0.011ms returns 0x00000000
T440C 1542:715.669 JLINK_ReadReg(FPS30)
T440C 1542:715.677 - 0.011ms returns 0x00000000
T440C 1542:715.688 JLINK_ReadReg(FPS31)
T440C 1542:715.696 - 0.011ms returns 0x00000000
T440C 1542:954.289   JLINK_ReadMemEx(0x080083A4, 0x0002 Bytes, ..., Flags = 0x02000000)
T440C 1542:954.328    -- CPU_ReadMem(64 bytes @ 0x08008380)
T440C 1542:955.116    -- Updating C cache (64 bytes @ 0x08008380)
T440C 1542:955.139    -- Read from C cache (2 bytes @ 0x080083A4)
T440C 1542:955.155   Data:  F9 F7
T440C 1542:955.167 - 0.883ms returns 0x02
T440C 1542:955.192 JLINK_Go()
T440C 1542:955.212    -- CPU_ReadMem(4 bytes @ 0xE0001000)
T440C 1542:955.856    -- CPU_WriteMem(4 bytes @ 0xE0002008)
T440C 1542:958.855 - 3.705ms
T440C 1543:059.928 JLINK_IsHalted()
T440C 1543:060.506 - 0.587ms returns FALSE
T440C 1543:161.136 JLINK_IsHalted()
T440C 1543:161.941 - 0.826ms returns FALSE
T440C 1543:262.755 JLINK_IsHalted()
T440C 1543:263.796 - 1.059ms returns FALSE
T440C 1543:364.395 JLINK_IsHalted()
T440C 1543:364.971 - 0.589ms returns FALSE
T440C 1543:465.677 JLINK_ReadMemU32(0xE0001004, 0x0001 Items, ...)
T440C 1543:465.712    -- CPU_ReadMem(4 bytes @ 0xE0001004)
T440C 1543:466.326   Data:  48 5A 8A 02
T440C 1543:466.346    - DWT_CYCCNT
T440C 1543:466.358 - 0.685ms returns 1
T440C 1543:468.937 JLINK_IsHalted()
T440C 1543:469.415 - 0.489ms returns FALSE
T440C 1543:569.766 JLINK_IsHalted()
T440C 1543:570.507 - 0.752ms returns FALSE
T440C 1543:671.023 JLINK_IsHalted()
T440C 1543:671.994 - 0.991ms returns FALSE
T440C 1543:773.007 JLINK_IsHalted()
T440C 1543:773.813 - 0.828ms returns FALSE
T440C 1543:873.972 JLINK_IsHalted()
T440C 1543:874.473 - 0.522ms returns FALSE
T440C 1543:975.105 JLINK_IsHalted()
T440C 1543:975.979 - 0.895ms returns FALSE
T440C 1544:076.866 JLINK_ReadMemU32(0xE0001004, 0x0001 Items, ...)
T440C 1544:076.906   Data:  48 5A 8A 02
T440C 1544:076.924    - DWT_CYCCNT
T440C 1544:076.937 - 0.075ms returns 1
T440C 1544:077.330 JLINK_IsHalted()
T440C 1544:078.073 - 0.757ms returns FALSE
T440C 1544:178.367 JLINK_IsHalted()
T440C 1544:178.921 - 0.564ms returns FALSE
T440C 1544:279.124 JLINK_IsHalted()
T440C 1544:280.140 - 1.035ms returns FALSE
T440C 1544:380.793 JLINK_IsHalted()
T440C 1544:381.682 - 0.910ms returns FALSE
T440C 1544:481.862 JLINK_IsHalted()
T440C 1544:482.501 - 0.650ms returns FALSE
T440C 1544:583.486 JLINK_IsHalted()
T440C 1544:584.467 - 1.000ms returns FALSE
T440C 1544:684.670 JLINK_ReadMemU32(0xE0001004, 0x0001 Items, ...)
T440C 1544:684.711   Data:  48 5A 8A 02
T440C 1544:684.729    - DWT_CYCCNT
T440C 1544:684.744 - 0.080ms returns 1
T440C 1544:685.090 JLINK_IsHalted()
T440C 1544:685.956 - 0.880ms returns FALSE
T440C 1544:786.407 JLINK_IsHalted()
T440C 1544:787.170 - 0.780ms returns FALSE
T440C 1544:887.326 JLINK_IsHalted()
T440C 1544:888.203 - 0.895ms returns FALSE
T440C 1544:988.948 JLINK_IsHalted()
T440C 1544:989.905 - 0.977ms returns FALSE
T440C 1545:090.520 JLINK_IsHalted()
T440C 1545:091.126 - 0.619ms returns FALSE
T440C 1545:191.548 JLINK_IsHalted()
T440C 1545:192.295 - 0.765ms returns FALSE
T440C 1545:292.493 JLINK_ReadMemU32(0xE0001004, 0x0001 Items, ...)
T440C 1545:292.533   Data:  48 5A 8A 02
T440C 1545:292.554    - DWT_CYCCNT
T440C 1545:292.571 - 0.084ms returns 1
T440C 1545:293.714 JLINK_IsHalted()
T440C 1545:294.355 - 0.652ms returns FALSE
T440C 1545:394.963 JLINK_IsHalted()
T440C 1545:395.756 - 0.816ms returns FALSE
T440C 1545:496.834 JLINK_IsHalted()
T440C 1545:497.478 - 0.656ms returns FALSE
T440C 1545:597.696 JLINK_IsHalted()
T440C 1545:598.612 - 0.936ms returns FALSE
T440C 1545:699.228 JLINK_IsHalted()
T440C 1545:699.819 - 0.602ms returns FALSE
T440C 1545:800.153 JLINK_IsHalted()
T440C 1545:801.063 - 0.932ms returns FALSE
T440C 1545:901.300 JLINK_ReadMemU32(0xE0001004, 0x0001 Items, ...)
T440C 1545:901.336   Data:  48 5A 8A 02
T440C 1545:901.351    - DWT_CYCCNT
T440C 1545:901.364 - 0.068ms returns 1
T440C 1545:903.496 JLINK_IsHalted()
T440C 1545:904.159 - 0.672ms returns FALSE
T440C 1546:004.405 JLINK_IsHalted()
T440C 1546:005.072 - 0.676ms returns FALSE
T440C 1546:106.113 JLINK_IsHalted()
T440C 1546:106.827 - 0.735ms returns FALSE
T440C 1546:207.557 JLINK_IsHalted()
T440C 1546:208.553 - 1.016ms returns FALSE
T440C 1546:308.951 JLINK_IsHalted()
T440C 1546:309.802 - 0.874ms returns FALSE
T440C 1546:410.275 JLINK_IsHalted()
T440C 1546:410.973 - 0.715ms returns FALSE
T440C 1546:511.382 JLINK_ReadMemU32(0xE0001004, 0x0001 Items, ...)
T440C 1546:511.424   Data:  48 5A 8A 02
T440C 1546:511.445    - DWT_CYCCNT
T440C 1546:511.463 - 0.092ms returns 1
T440C 1546:512.216 JLINK_IsHalted()
T440C 1546:512.852 - 0.652ms returns FALSE
T440C 1546:613.115 JLINK_IsHalted()
T440C 1546:613.704 - 0.602ms returns FALSE
T440C 1546:714.344 JLINK_IsHalted()
T440C 1546:715.335 - 1.011ms returns FALSE
T440C 1546:815.899 JLINK_IsHalted()
T440C 1546:816.863 - 0.984ms returns FALSE
T440C 1546:917.248 JLINK_IsHalted()
T440C 1546:917.875 - 0.645ms returns FALSE
T440C 1547:018.537 JLINK_IsHalted()
T440C 1547:019.199 - 0.671ms returns FALSE
T440C 1547:119.372 JLINK_ReadMemU32(0xE0001004, 0x0001 Items, ...)
T440C 1547:119.492   Data:  48 5A 8A 02
T440C 1547:119.525    - DWT_CYCCNT
T440C 1547:119.538 - 0.170ms returns 1
T440C 1547:120.100 JLINK_IsHalted()
T440C 1547:120.869 - 0.780ms returns FALSE
T440C 1547:221.152 JLINK_IsHalted()
T440C 1547:222.125 - 0.991ms returns FALSE
T440C 1547:322.398 JLINK_IsHalted()
T440C 1547:323.119 - 0.741ms returns FALSE
T440C 1547:423.881 JLINK_IsHalted()
T440C 1547:424.880 - 1.019ms returns FALSE
T440C 1547:525.756 JLINK_IsHalted()
T440C 1547:526.705 - 0.969ms returns FALSE
T440C 1547:627.272 JLINK_IsHalted()
T440C 1547:627.874 - 0.614ms returns FALSE
T440C 1547:728.114 JLINK_ReadMemU32(0xE0001004, 0x0001 Items, ...)
T440C 1547:728.151   Data:  48 5A 8A 02
T440C 1547:728.167    - DWT_CYCCNT
T440C 1547:728.260 - 0.151ms returns 1
T440C 1547:728.586 JLINK_IsHalted()
T440C 1547:729.538 - 0.972ms returns FALSE
T440C 1547:829.640 JLINK_IsHalted()
T440C 1547:830.268 - 0.639ms returns FALSE
T440C 1547:931.663 JLINK_IsHalted()
T440C 1547:932.159 - 0.519ms returns FALSE
T440C 1548:032.497 JLINK_IsHalted()
T440C 1548:033.227 - 0.740ms returns FALSE
T0FC0 1548:132.433   JLINK_SetBPEx(Addr = 0x08006B68, Type = 0xFFFFFFF2)
T0FC0 1548:132.459   CPU is running
T0FC0 1548:132.474   CPU is running
T0FC0 1548:132.491    -- CPU_WriteMem(4 bytes @ 0xE0002000)
T0FC0 1548:133.299   CPU is running
T0FC0 1548:133.321    -- CPU_WriteMem(4 bytes @ 0xE0002008)
T0FC0 1548:134.425 - 2.011ms returns 0x00000002
T440C 1548:134.508 JLINK_IsHalted()
T440C 1548:135.266 - 0.773ms returns FALSE
T440C 1548:236.601 JLINK_IsHalted()
T440C 1548:239.960 - 3.380ms returns TRUE
T440C 1548:240.000 JLINK_Halt()
T440C 1548:240.011 - 0.015ms returns 0x00
T440C 1548:240.025 JLINK_IsHalted()
T440C 1548:240.036 - 0.017ms returns TRUE
T440C 1548:240.071 JLINK_IsHalted()
T440C 1548:240.084 - 0.017ms returns TRUE
T440C 1548:240.098 JLINK_IsHalted()
T440C 1548:240.108 - 0.015ms returns TRUE
T440C 1548:240.128 JLINK_ReadReg(R15 (PC))
T440C 1548:240.144 - 0.021ms returns 0x08006B68
T440C 1548:240.158 JLINK_ReadReg(XPSR)
T440C 1548:240.168 - 0.014ms returns 0x61000000
T440C 1548:240.192 JLINK_ClrBPEx(BPHandle = 0x00000002)
T440C 1548:240.204 - 0.018ms returns 0x00
T440C 1548:240.227 JLINK_ReadMemU32(0xE000ED30, 0x0001 Items, ...)
T440C 1548:240.246    -- CPU_ReadMem(4 bytes @ 0xE000ED30)
T440C 1548:240.966   Data:  02 00 00 00
T440C 1548:240.991 - 0.769ms returns 1
T440C 1548:241.012 JLINK_ReadMemU32(0xE0001028, 0x0001 Items, ...)
T440C 1548:241.029    -- CPU_ReadMem(4 bytes @ 0xE0001028)
T440C 1548:241.823   Data:  00 00 00 00
T440C 1548:241.851    - DWT_FUNC[0]
T440C 1548:241.864 - 0.856ms returns 1
T440C 1548:241.883 JLINK_ReadMemU32(0xE0001038, 0x0001 Items, ...)
T440C 1548:241.900    -- CPU_ReadMem(4 bytes @ 0xE0001038)
T440C 1548:242.710   Data:  00 02 00 00
T440C 1548:242.731    - DWT_FUNC[1]
T440C 1548:242.743 - 0.864ms returns 1
T440C 1548:242.758 JLINK_ReadMemU32(0xE0001048, 0x0001 Items, ...)
T440C 1548:242.772    -- CPU_ReadMem(4 bytes @ 0xE0001048)
T440C 1548:243.840   Data:  00 00 00 00
T440C 1548:243.873    - DWT_FUNC[2]
T440C 1548:243.885 - 1.131ms returns 1
T440C 1548:243.900 JLINK_ReadMemU32(0xE0001058, 0x0001 Items, ...)
T440C 1548:243.914    -- CPU_ReadMem(4 bytes @ 0xE0001058)
T440C 1548:244.569   Data:  00 00 00 00
T440C 1548:244.589    - DWT_FUNC[3]
T440C 1548:244.601 - 0.704ms returns 1
T440C 1548:244.692 JLINK_ReadReg(R0)
T440C 1548:244.705 - 0.017ms returns 0xE000ED04
T440C 1548:244.717 JLINK_ReadReg(R1)
T440C 1548:244.726 - 0.012ms returns 0x10000000
T440C 1548:244.737 JLINK_ReadReg(R2)
T440C 1548:244.746 - 0.012ms returns 0x00000001
T440C 1548:244.757 JLINK_ReadReg(R3)
T440C 1548:244.766 - 0.012ms returns 0x20004EAC
T440C 1548:244.777 JLINK_ReadReg(R4)
T440C 1548:244.786 - 0.012ms returns 0x200045B4
T440C 1548:244.797 JLINK_ReadReg(R5)
T440C 1548:244.805 - 0.012ms returns 0xA5A5A5A5
T440C 1548:244.817 JLINK_ReadReg(R6)
T440C 1548:244.825 - 0.012ms returns 0xA5A5A5A5
T440C 1548:244.837 JLINK_ReadReg(R7)
T440C 1548:244.845 - 0.012ms returns 0xA5A5A5A5
T440C 1548:244.857 JLINK_ReadReg(R8)
T440C 1548:244.865 - 0.012ms returns 0xA5A5A5A5
T440C 1548:244.877 JLINK_ReadReg(R9)
T440C 1548:244.885 - 0.012ms returns 0xA5A5A5A5
T440C 1548:244.897 JLINK_ReadReg(R10)
T440C 1548:244.905 - 0.012ms returns 0xA5A5A5A5
T440C 1548:244.916 JLINK_ReadReg(R11)
T440C 1548:244.925 - 0.012ms returns 0xA5A5A5A5
T440C 1548:244.936 JLINK_ReadReg(R12)
T440C 1548:244.944 - 0.012ms returns 0x00001406
T440C 1548:244.957 JLINK_ReadReg(R13 (SP))
T440C 1548:244.967 - 0.015ms returns 0x200045B0
T440C 1548:244.979 JLINK_ReadReg(R14)
T440C 1548:244.987 - 0.012ms returns 0x0800AA57
T440C 1548:244.999 JLINK_ReadReg(R15 (PC))
T440C 1548:245.007 - 0.012ms returns 0x08006B68
T440C 1548:245.023 JLINK_ReadReg(XPSR)
T440C 1548:245.035 - 0.019ms returns 0x61000000
T440C 1548:245.050 JLINK_ReadReg(MSP)
T440C 1548:245.059 - 0.012ms returns 0x2000EDD8
T440C 1548:245.070 JLINK_ReadReg(PSP)
T440C 1548:245.078 - 0.012ms returns 0x200045B0
T440C 1548:245.090 JLINK_ReadReg(CFBP)
T440C 1548:245.098 - 0.012ms returns 0x02000000
T440C 1548:245.110 JLINK_ReadReg(FPSCR)
T440C 1548:249.145 - 4.050ms returns 0x00000000
T440C 1548:249.172 JLINK_ReadReg(FPS0)
T440C 1548:249.182 - 0.014ms returns 0x3DBDF60B
T440C 1548:249.194 JLINK_ReadReg(FPS1)
T440C 1548:249.202 - 0.012ms returns 0x3E186341
T440C 1548:249.214 JLINK_ReadReg(FPS2)
T440C 1548:249.222 - 0.012ms returns 0x41C4B998
T440C 1548:249.234 JLINK_ReadReg(FPS3)
T440C 1548:249.242 - 0.012ms returns 0x00000000
T440C 1548:249.254 JLINK_ReadReg(FPS4)
T440C 1548:249.262 - 0.012ms returns 0x3D08CEE6
T440C 1548:249.273 JLINK_ReadReg(FPS5)
T440C 1548:249.282 - 0.012ms returns 0x00000000
T440C 1548:249.308 JLINK_ReadReg(FPS6)
T440C 1548:249.316 - 0.025ms returns 0x415A5D10
T440C 1548:249.340 JLINK_ReadReg(FPS7)
T440C 1548:249.348 - 0.011ms returns 0x00000000
T440C 1548:249.359 JLINK_ReadReg(FPS8)
T440C 1548:249.367 - 0.026ms returns 0x3D3E4E03
T440C 1548:249.392 JLINK_ReadReg(FPS9)
T440C 1548:249.421 - 0.049ms returns 0x00000000
T440C 1548:249.464 JLINK_ReadReg(FPS10)
T440C 1548:249.491 - 0.030ms returns 0x3A77A531
T440C 1548:249.503 JLINK_ReadReg(FPS11)
T440C 1548:249.511 - 0.026ms returns 0x00000000
T440C 1548:249.536 JLINK_ReadReg(FPS12)
T440C 1548:249.544 - 0.012ms returns 0x3AF7A531
T440C 1548:249.555 JLINK_ReadReg(FPS13)
T440C 1548:249.583 - 0.032ms returns 0x00000000
T440C 1548:249.608 JLINK_ReadReg(FPS14)
T440C 1548:249.636 - 0.031ms returns 0x00000000
T440C 1548:249.646 JLINK_ReadReg(FPS15)
T440C 1548:249.654 - 0.011ms returns 0x00000000
T440C 1548:249.665 JLINK_ReadReg(FPS16)
T440C 1548:249.673 - 0.030ms returns 0x3F800000
T440C 1548:249.716 JLINK_ReadReg(FPS17)
T440C 1548:249.724 - 0.012ms returns 0x00000000
T440C 1548:249.736 JLINK_ReadReg(FPS18)
T440C 1548:249.771 - 0.044ms returns 0x43F15C31
T440C 1548:249.790 JLINK_ReadReg(FPS19)
T440C 1548:249.800 - 0.013ms returns 0x00000000
T440C 1548:249.811 JLINK_ReadReg(FPS20)
T440C 1548:249.820 - 0.012ms returns 0xBF800000
T440C 1548:249.831 JLINK_ReadReg(FPS21)
T440C 1548:249.840 - 0.026ms returns 0x00000000
T440C 1548:249.879 JLINK_ReadReg(FPS22)
T440C 1548:249.903 - 0.028ms returns 0x3DCCCCCD
T440C 1548:249.916 JLINK_ReadReg(FPS23)
T440C 1548:249.924 - 0.012ms returns 0x00000000
T440C 1548:249.935 JLINK_ReadReg(FPS24)
T440C 1548:249.961 - 0.046ms returns 0x00000000
T440C 1548:250.003 JLINK_ReadReg(FPS25)
T440C 1548:250.011 - 0.012ms returns 0x00000000
T440C 1548:250.022 JLINK_ReadReg(FPS26)
T440C 1548:250.030 - 0.012ms returns 0x00000000
T440C 1548:250.041 JLINK_ReadReg(FPS27)
T440C 1548:250.049 - 0.012ms returns 0x00000000
T440C 1548:250.060 JLINK_ReadReg(FPS28)
T440C 1548:250.071 - 0.015ms returns 0x00000000
T440C 1548:250.083 JLINK_ReadReg(FPS29)
T440C 1548:250.091 - 0.012ms returns 0x00000000
T440C 1548:250.102 JLINK_ReadReg(FPS30)
T440C 1548:250.110 - 0.012ms returns 0x00000000
T440C 1548:250.121 JLINK_ReadReg(FPS31)
T440C 1548:250.129 - 0.012ms returns 0x00000000
T0FC0 1548:251.387   JLINK_ReadMemEx(0x200045DC, 0x0004 Bytes, ..., Flags = 0x02000000)
T0FC0 1548:251.412    -- CPU_ReadMem(64 bytes @ 0x200045C0)
T0FC0 1548:252.587    -- Updating C cache (64 bytes @ 0x200045C0)
T0FC0 1548:252.619    -- Read from C cache (4 bytes @ 0x200045DC)
T0FC0 1548:252.631   Data:  1C 1C 00 20
T0FC0 1548:252.642 - 1.259ms returns 0x04
T0FC0 1548:252.743   JLINK_ReadMemEx(0x200045BC, 0x0004 Bytes, ..., Flags = 0x02000000)
T0FC0 1548:252.758    -- CPU_ReadMem(64 bytes @ 0x20004580)
T0FC0 1548:253.750    -- Updating C cache (64 bytes @ 0x20004580)
T0FC0 1548:253.780    -- Read from C cache (4 bytes @ 0x200045BC)
T0FC0 1548:253.792   Data:  A5 A5 A5 A5
T0FC0 1548:253.803 - 1.064ms returns 0x04
T0FC0 1548:253.818   JLINK_ReadMemEx(0x200045C0, 0x0004 Bytes, ..., Flags = 0x02000000)
T0FC0 1548:253.835    -- Read from C cache (4 bytes @ 0x200045C0)
T0FC0 1548:253.846   Data:  00 00 00 00
T0FC0 1548:253.857 - 0.043ms returns 0x04
T0FC0 1548:253.869   JLINK_ReadMemEx(0x200045C4, 0x0004 Bytes, ..., Flags = 0x02000000)
T0FC0 1548:253.880    -- Read from C cache (4 bytes @ 0x200045C4)
T0FC0 1548:253.891   Data:  68 00 00 80
T0FC0 1548:253.902 - 0.037ms returns 0x04
T0FC0 1548:253.913   JLINK_ReadMemEx(0x200045C8, 0x0004 Bytes, ..., Flags = 0x02000000)
T0FC0 1548:253.925    -- Read from C cache (4 bytes @ 0x200045C8)
T0FC0 1548:253.936   Data:  5C 45 00 20
T0FC0 1548:253.946 - 0.038ms returns 0x04
T0FC0 1548:253.959   JLINK_ReadMemEx(0x200045CC, 0x0004 Bytes, ..., Flags = 0x02000000)
T0FC0 1548:253.971    -- Read from C cache (4 bytes @ 0x200045CC)
T0FC0 1548:253.982   Data:  06 14 00 00
T0FC0 1548:253.993 - 0.038ms returns 0x04
T0FC0 1548:254.004   JLINK_ReadMemEx(0x200045D0, 0x0004 Bytes, ..., Flags = 0x02000000)
T0FC0 1548:254.016    -- Read from C cache (4 bytes @ 0x200045D0)
T0FC0 1548:254.027   Data:  FC 59 00 20
T0FC0 1548:254.037 - 0.037ms returns 0x04
T0FC0 1548:254.048   JLINK_ReadMemEx(0x200045D4, 0x0004 Bytes, ..., Flags = 0x02000000)
T0FC0 1548:254.060    -- Read from C cache (4 bytes @ 0x200045D4)
T0FC0 1548:254.071   Data:  24 1C 00 20
T0FC0 1548:254.083 - 0.039ms returns 0x04
T0FC0 1548:254.094   JLINK_ReadMemEx(0x200045D8, 0x0004 Bytes, ..., Flags = 0x02000000)
T0FC0 1548:254.125    -- Read from C cache (4 bytes @ 0x200045D8)
T0FC0 1548:254.150   Data:  C8 45 00 20
T0FC0 1548:254.160 - 0.070ms returns 0x04
T0FC0 1548:254.172   JLINK_ReadMemEx(0x200045DC, 0x0004 Bytes, ..., Flags = 0x02000000)
T0FC0 1548:254.183    -- Read from C cache (4 bytes @ 0x200045DC)
T0FC0 1548:254.194   Data:  1C 1C 00 20
T0FC0 1548:254.205 - 0.037ms returns 0x04
T0FC0 1548:260.469   JLINK_ReadMemEx(0x200045B4, 0x0004 Bytes, ..., Flags = 0x02000000)
T0FC0 1548:260.538    -- Read from C cache (4 bytes @ 0x200045B4)
T0FC0 1548:260.550   Data:  06 14 00 00
T0FC0 1548:260.562 - 0.098ms returns 0x04
T0FC0 1548:266.260   JLINK_ReadMemEx(0x200045B4, 0x0004 Bytes, ..., Flags = 0x02000000)
T0FC0 1548:266.291    -- Read from C cache (4 bytes @ 0x200045B4)
T0FC0 1548:266.303   Data:  06 14 00 00
T0FC0 1548:266.315 - 0.060ms returns 0x04
T0FC0 1548:266.485   JLINK_ReadMemEx(0x08006B68, 0x003C Bytes, ..., Flags = 0x02000000)
T0FC0 1548:266.506    -- CPU_ReadMem(128 bytes @ 0x08006B40)
T0FC0 1548:268.029    -- Updating C cache (128 bytes @ 0x08006B40)
T0FC0 1548:268.065    -- Read from C cache (60 bytes @ 0x08006B68)
T0FC0 1548:268.078   Data:  20 46 05 21 02 F0 80 FD FA E7 00 00 01 20 02 F0 ...
T0FC0 1548:268.090 - 1.609ms returns 0x3C
T0FC0 1548:268.105   JLINK_ReadMemEx(0x08006B68, 0x0002 Bytes, ..., Flags = 0x02000000)
T0FC0 1548:268.118    -- Read from C cache (2 bytes @ 0x08006B68)
T0FC0 1548:268.146   Data:  20 46
T0FC0 1548:268.158 - 0.057ms returns 0x02
T0FC0 1548:268.170   JLINK_ReadMemEx(0x08006B6A, 0x0002 Bytes, ..., Flags = 0x02000000)
T0FC0 1548:268.181    -- Read from C cache (2 bytes @ 0x08006B6A)
T0FC0 1548:268.192   Data:  05 21
T0FC0 1548:268.204 - 0.038ms returns 0x02
T0FC0 1548:268.225   JLINK_ReadMemEx(0x08006B6A, 0x0002 Bytes, ..., Flags = 0x02000000)
T0FC0 1548:268.237    -- Read from C cache (2 bytes @ 0x08006B6A)
T0FC0 1548:268.248   Data:  05 21
T0FC0 1548:268.259 - 0.038ms returns 0x02
T0FC0 1548:268.270   JLINK_ReadMemEx(0x08006B6C, 0x003C Bytes, ..., Flags = 0x02000000)
T0FC0 1548:268.282    -- Read from C cache (60 bytes @ 0x08006B6C)
T0FC0 1548:268.294   Data:  02 F0 80 FD FA E7 00 00 01 20 02 F0 51 FD FB E7 ...
T0FC0 1548:268.305 - 0.038ms returns 0x3C
T0FC0 1548:268.316   JLINK_ReadMemEx(0x08006B6C, 0x0002 Bytes, ..., Flags = 0x02000000)
T0FC0 1548:268.327    -- Read from C cache (2 bytes @ 0x08006B6C)
T0FC0 1548:268.338   Data:  02 F0
T0FC0 1548:268.349 - 0.037ms returns 0x02
T0FC0 1548:268.367   JLINK_ReadMemEx(0x08006B6C, 0x003C Bytes, ..., Flags = 0x02000000)
T0FC0 1548:268.379    -- Read from C cache (60 bytes @ 0x08006B6C)
T0FC0 1548:268.398   Data:  02 F0 80 FD FA E7 00 00 01 20 02 F0 51 FD FB E7 ...
T0FC0 1548:268.409 - 0.046ms returns 0x3C
T0FC0 1548:268.420   JLINK_ReadMemEx(0x08006B6C, 0x0002 Bytes, ..., Flags = 0x02000000)
T0FC0 1548:268.432    -- Read from C cache (2 bytes @ 0x08006B6C)
T0FC0 1548:268.443   Data:  02 F0
T0FC0 1548:268.454 - 0.038ms returns 0x02
T0FC0 1548:268.465   JLINK_ReadMemEx(0x08006B6E, 0x0002 Bytes, ..., Flags = 0x02000000)
T0FC0 1548:268.476    -- Read from C cache (2 bytes @ 0x08006B6E)
T0FC0 1548:268.487   Data:  80 FD
T0FC0 1548:268.498 - 0.037ms returns 0x02
T440C 1548:642.353   JLINK_ReadMemEx(0x08006B68, 0x0002 Bytes, ..., Flags = 0x02000000)
T440C 1548:642.390    -- Read from C cache (2 bytes @ 0x08006B68)
T440C 1548:642.406   Data:  20 46
T440C 1548:642.426 - 0.079ms returns 0x02
T440C 1548:642.453 JLINK_Go()
T440C 1548:642.480    -- CPU_ReadMem(4 bytes @ 0xE0001000)
T440C 1548:643.185    -- CPU_WriteMem(4 bytes @ 0xE0002008)
T440C 1548:644.962 - 2.523ms
T440C 1548:745.468 JLINK_IsHalted()
T440C 1548:746.364 - 0.916ms returns FALSE
T440C 1548:846.461 JLINK_IsHalted()
T440C 1548:847.145 - 0.693ms returns FALSE
T440C 1548:948.201 JLINK_IsHalted()
T440C 1548:949.091 - 0.913ms returns FALSE
T440C 1549:049.513 JLINK_IsHalted()
T440C 1549:050.160 - 0.666ms returns FALSE
T440C 1549:150.848 JLINK_ReadMemU32(0xE0001004, 0x0001 Items, ...)
T440C 1549:150.889    -- CPU_ReadMem(4 bytes @ 0xE0001004)
T440C 1549:151.890   Data:  77 11 76 1C
T440C 1549:151.920    - DWT_CYCCNT
T440C 1549:151.935 - 1.092ms returns 1
T440C 1549:152.330 JLINK_IsHalted()
T440C 1549:153.239 - 0.930ms returns FALSE
T440C 1549:253.811 JLINK_IsHalted()
T440C 1549:254.575 - 0.782ms returns FALSE
T0FC0 1549:283.567   JLINK_SetBPEx(Addr = 0x08006B68, Type = 0xFFFFFFF2)
T0FC0 1549:283.598   CPU is running
T0FC0 1549:283.613   CPU is running
T0FC0 1549:283.628    -- CPU_WriteMem(4 bytes @ 0xE0002000)
T0FC0 1549:284.449   CPU is running
T0FC0 1549:284.479    -- CPU_WriteMem(4 bytes @ 0xE0002008)
T0FC0 1549:285.446 - 1.897ms returns 0x00000003
T440C 1549:355.038 JLINK_IsHalted()
T440C 1549:358.245 - 3.228ms returns TRUE
T440C 1549:358.298 JLINK_Halt()
T440C 1549:358.310 - 0.016ms returns 0x00
T440C 1549:358.325 JLINK_IsHalted()
T440C 1549:358.336 - 0.016ms returns TRUE
T440C 1549:358.351 JLINK_IsHalted()
T440C 1549:358.361 - 0.015ms returns TRUE
T440C 1549:358.375 JLINK_IsHalted()
T440C 1549:358.385 - 0.014ms returns TRUE
T440C 1549:358.405 JLINK_ReadReg(R15 (PC))
T440C 1549:358.419 - 0.020ms returns 0x08006B68
T440C 1549:358.435 JLINK_ReadReg(XPSR)
T440C 1549:358.446 - 0.016ms returns 0x61000000
T440C 1549:358.470 JLINK_ClrBPEx(BPHandle = 0x00000003)
T440C 1549:358.483 - 0.017ms returns 0x00
T440C 1549:358.506 JLINK_ReadMemU32(0xE000ED30, 0x0001 Items, ...)
T440C 1549:358.523    -- CPU_ReadMem(4 bytes @ 0xE000ED30)
T440C 1549:359.443   Data:  02 00 00 00
T440C 1549:359.473 - 0.972ms returns 1
T440C 1549:359.494 JLINK_ReadMemU32(0xE0001028, 0x0001 Items, ...)
T440C 1549:359.514    -- CPU_ReadMem(4 bytes @ 0xE0001028)
T440C 1549:360.414   Data:  00 00 00 00
T440C 1549:360.445    - DWT_FUNC[0]
T440C 1549:360.459 - 0.971ms returns 1
T440C 1549:360.481 JLINK_ReadMemU32(0xE0001038, 0x0001 Items, ...)
T440C 1549:360.501    -- CPU_ReadMem(4 bytes @ 0xE0001038)
T440C 1549:361.363   Data:  00 02 00 00
T440C 1549:361.395    - DWT_FUNC[1]
T440C 1549:361.409 - 0.934ms returns 1
T440C 1549:361.445 JLINK_ReadMemU32(0xE0001048, 0x0001 Items, ...)
T440C 1549:361.466    -- CPU_ReadMem(4 bytes @ 0xE0001048)
T440C 1549:362.133   Data:  00 00 00 00
T440C 1549:362.168    - DWT_FUNC[2]
T440C 1549:362.183 - 0.743ms returns 1
T440C 1549:362.203 JLINK_ReadMemU32(0xE0001058, 0x0001 Items, ...)
T440C 1549:362.222    -- CPU_ReadMem(4 bytes @ 0xE0001058)
T440C 1549:363.049   Data:  00 00 00 00
T440C 1549:363.071    - DWT_FUNC[3]
T440C 1549:363.086 - 0.888ms returns 1
T440C 1549:363.188 JLINK_ReadReg(R0)
T440C 1549:363.203 - 0.020ms returns 0xE000ED04
T440C 1549:363.226 JLINK_ReadReg(R1)
T440C 1549:363.248 - 0.027ms returns 0x10000000
T440C 1549:363.262 JLINK_ReadReg(R2)
T440C 1549:363.273 - 0.015ms returns 0x00000001
T440C 1549:363.287 JLINK_ReadReg(R3)
T440C 1549:363.297 - 0.015ms returns 0x20004A3C
T440C 1549:363.311 JLINK_ReadReg(R4)
T440C 1549:363.321 - 0.015ms returns 0x200045B4
T440C 1549:363.335 JLINK_ReadReg(R5)
T440C 1549:363.345 - 0.015ms returns 0xA5A5A5A5
T440C 1549:363.359 JLINK_ReadReg(R6)
T440C 1549:363.369 - 0.015ms returns 0xA5A5A5A5
T440C 1549:363.383 JLINK_ReadReg(R7)
T440C 1549:363.393 - 0.015ms returns 0xA5A5A5A5
T440C 1549:363.407 JLINK_ReadReg(R8)
T440C 1549:363.418 - 0.015ms returns 0xA5A5A5A5
T440C 1549:363.432 JLINK_ReadReg(R9)
T440C 1549:363.442 - 0.015ms returns 0xA5A5A5A5
T440C 1549:363.456 JLINK_ReadReg(R10)
T440C 1549:363.466 - 0.015ms returns 0xA5A5A5A5
T440C 1549:363.480 JLINK_ReadReg(R11)
T440C 1549:363.490 - 0.015ms returns 0xA5A5A5A5
T440C 1549:363.504 JLINK_ReadReg(R12)
T440C 1549:363.514 - 0.015ms returns 0x0000168B
T440C 1549:363.528 JLINK_ReadReg(R13 (SP))
T440C 1549:363.539 - 0.015ms returns 0x200045B0
T440C 1549:363.553 JLINK_ReadReg(R14)
T440C 1549:363.563 - 0.015ms returns 0x0800AA57
T440C 1549:363.577 JLINK_ReadReg(R15 (PC))
T440C 1549:363.587 - 0.015ms returns 0x08006B68
T440C 1549:363.601 JLINK_ReadReg(XPSR)
T440C 1549:363.612 - 0.015ms returns 0x61000000
T440C 1549:363.625 JLINK_ReadReg(MSP)
T440C 1549:363.636 - 0.015ms returns 0x2000EDD8
T440C 1549:363.650 JLINK_ReadReg(PSP)
T440C 1549:363.660 - 0.015ms returns 0x200045B0
T440C 1549:363.674 JLINK_ReadReg(CFBP)
T440C 1549:363.685 - 0.016ms returns 0x02000000
T440C 1549:363.700 JLINK_ReadReg(FPSCR)
T440C 1549:367.521 - 3.831ms returns 0x00000000
T440C 1549:367.541 JLINK_ReadReg(FPS0)
T440C 1549:367.551 - 0.014ms returns 0xBF004EEA
